freq/Hz	Re(Z)/Ohm	-Im(Z)/Ohm	|Z|/Ohm	Phase(Z)/deg	time/s	<Ewe>/V	<I>/mA
2.0001948E+005	1.3041710E+002	3.4680012E+001	1.3494934E+002	-1.4891262E+001	1.060235877037526E+004	-4.0435545E-002	-9.9461863E-004
1.4971677E+005	1.3415704E+002	2.7274202E+001	1.3690140E+002	-1.1491652E+001	1.060273376095307E+004	-4.0460460E-002	-7.4689457E-004
1.1207029E+005	1.3640355E+002	2.1577759E+001	1.3809970E+002	-8.9891653E+000	1.060323275020346E+004	-4.0456451E-002	-7.2788144E-004
8.3886695E+004	1.3778223E+002	1.7275707E+001	1.3886105E+002	-7.1466866E+000	1.060360777374124E+004	-4.0450379E-002	-7.8529207E-004
6.2792953E+004	1.3855463E+002	1.4341043E+001	1.3929483E+002	-5.9093351E+000	1.060398176706571E+004	-4.0451832E-002	-8.1735285E-004
4.7011707E+004	1.3911638E+002	1.2488245E+001	1.3967578E+002	-5.1295972E+000	1.060435675903014E+004	-4.0456861E-002	-8.0188201E-004
3.5185535E+004	1.3957651E+002	1.1539886E+001	1.4005273E+002	-4.7263427E+000	1.060473176272796E+004	-4.0454011E-002	-7.9927233E-004
2.6337883E+004	1.3994380E+002	1.1390005E+001	1.4040656E+002	-4.6530385E+000	1.060510676431912E+004	-4.0449407E-002	-8.1884407E-004
1.9716791E+004	1.4040123E+002	1.2181064E+001	1.4092865E+002	-4.9585056E+000	1.060548177159025E+004	-4.0451050E-002	-8.1828487E-004
1.4755859E+004	1.4087042E+002	1.3879620E+001	1.4155254E+002	-5.6270518E+000	1.060585676907474E+004	-4.0452633E-002	-8.2536775E-004
1.1044919E+004	1.4145625E+002	1.6460274E+001	1.4241072E+002	-6.6372590E+000	1.060635576128511E+004	-4.0457122E-002	-8.4754941E-004
8.4128223E+003	1.4214565E+002	1.9882139E+001	1.4352939E+002	-7.9623947E+000	1.060678597871889E+004	-4.0591940E-002	-8.2648644E-004
6.2992124E+003	1.4297421E+002	2.4846706E+001	1.4511714E+002	-9.8586588E+000	1.060733093413140E+004	-4.0589053E-002	-8.0467958E-004
4.6335156E+003	1.4390370E+002	3.1965317E+001	1.4741118E+002	-1.2523768E+001	1.060820247777287E+004	-4.0590171E-002	-8.5575104E-004
3.4688860E+003	1.4497437E+002	4.0939404E+001	1.5064395E+002	-1.5769184E+001	1.060885548737721E+004	-4.0599115E-002	-8.6656213E-004
2.5974958E+003	1.4603300E+002	5.3045052E+001	1.5536865E+002	-1.9963053E+001	1.060950521255471E+004	-4.0591531E-002	-9.1502559E-004
1.9443779E+003	1.4732561E+002	6.9020302E+001	1.6269185E+002	-2.5102533E+001	1.061015847202577E+004	-4.0590692E-002	-8.8221929E-004
1.4554634E+003	1.4896750E+002	9.0314140E+001	1.7420665E+002	-3.1227068E+001	1.061102733404037E+004	-4.0597569E-002	-8.8818400E-004
1.0889545E+003	1.5086800E+002	1.1855865E+002	1.9187836E+002	-3.8161808E+001	1.061168061244470E+004	-4.0591978E-002	-8.6730800E-004
8.1525739E+002	1.5338699E+002	1.5607516E+002	2.1883104E+002	-4.5497692E+001	1.061233235639569E+004	-4.0591065E-002	-8.4885472E-004
6.1019507E+002	1.5675284E+002	2.0560303E+002	2.5854218E+002	-5.2677910E+001	1.061298435479999E+004	-4.0588327E-002	-9.0421538E-004
4.5690088E+002	1.6092087E+002	2.7135919E+002	3.1548587E+002	-5.9331299E+001	1.061409658026614E+004	-4.0594678E-002	-7.3313553E-005
3.4207999E+002	1.6647746E+002	3.5770621E+002	3.9454843E+002	-6.5042603E+001	1.061474419693684E+004	-4.0597253E-002	-7.1317132E-005
2.5606528E+002	1.7377625E+002	4.7194934E+002	5.0292581E+002	-6.9785812E+001	1.061539457998113E+004	-4.0596843E-002	-7.5683842E-005
1.9165575E+002	1.8360539E+002	6.2290924E+002	6.4940503E+002	-7.3576874E+001	1.061604270089191E+004	-4.0599115E-002	-7.4825941E-005
1.4348476E+002	1.9632477E+002	8.2200745E+002	8.4512701E+002	-7.6567360E+001	1.061670253430991E+004	-4.0590581E-002	-7.4882046E-005
1.0737106E+002	2.1326970E+002	1.0851769E+003	1.1059353E+003	-7.8881371E+001	1.061734101596690E+004	-4.0605396E-002	-7.4415708E-005
8.0385803E+001	2.3603098E+002	1.4336805E+003	1.4529799E+003	-8.0651093E+001	1.061799143573114E+004	-4.0612921E-002	-7.6505785E-005
6.0173271E+001	2.6537320E+002	1.8921530E+003	1.9106715E+003	-8.2016380E+001	1.061864183376200E+004	-4.0605005E-002	-7.9360791E-005
4.5043228E+001	3.0579886E+002	2.4996538E+003	2.5182896E+003	-8.3025291E+001	1.061954023572465E+004	-4.0599562E-002	1.6005855E-005
3.3716110E+001	3.6031354E+002	3.3010442E+003	3.3206504E+003	-8.3770744E+001	1.062021501359669E+004	-4.0602617E-002	1.2039787E-005
2.5234146E+001	4.3233145E+002	4.3548379E+003	4.3762456E+003	-8.4330475E+001	1.062086255402750E+004	-4.0604930E-002	1.0398163E-005
1.8893555E+001	5.3273950E+002	5.7556865E+003	5.7802886E+003	-8.4711838E+001	1.062155015331344E+004	-4.0607322E-002	1.1430669E-005
1.4135986E+001	6.6984698E+002	7.5969028E+003	7.6263770E+003	-8.4961052E+001	1.062223865001285E+004	-4.0596414E-002	1.2125528E-005
1.0586008E+001	8.4992682E+002	1.0017949E+004	1.0053938E+004	-8.5150620E+001	1.062285835401565E+004	-4.0598333E-002	1.2588146E-005
7.9233942E+000	1.1035782E+003	1.3215479E+004	1.3261478E+004	-8.5226509E+001	1.062396486513485E+004	-4.0596135E-002	1.9567002E-005
5.9320397E+000	1.4642717E+003	1.7422945E+004	1.7484367E+004	-8.5195999E+001	1.062452397185471E+004	-4.0600419E-002	1.8486064E-005
4.4389215E+000	1.9544601E+003	2.2996092E+004	2.3078998E+004	-8.5142052E+001	1.062525171506265E+004	-4.0596377E-002	1.9493671E-005
3.3244710E+000	2.6105586E+003	3.0248844E+004	3.0361283E+004	-8.5067436E+001	1.062620330732119E+004	-4.0591262E-002	1.9928868E-005
2.4872644E+000	3.6201074E+003	3.9883594E+004	4.0047551E+004	-8.4813652E+001	1.062745759652741E+004	-4.0592488E-002	1.9572613E-005
1.8623395E+000	4.9318779E+003	5.2506844E+004	5.2737957E+004	-8.4634048E+001	1.062969853210053E+004	-4.0601045E-002	1.9966785E-005
1.3933479E+000	6.8752324E+003	6.9083320E+004	6.9424594E+004	-8.4316589E+001	1.063189746095164E+004	-4.0614765E-002	2.0064368E-005
1.0433345E+000	9.7894717E+003	9.0776766E+004	9.1303094E+004	-8.3844940E+001	1.063481936210376E+004	-4.0598035E-002	2.0129652E-005
7.8156585E-001	1.4103699E+004	1.1917555E+005	1.2000719E+005	-8.3250786E+001	1.063870443962162E+004	-4.0596291E-002	2.0158750E-005
5.8476776E-001	2.0709209E+004	1.5605933E+005	1.5742739E+005	-8.2440964E+001	1.064388251285424E+004	-4.0591829E-002	1.9872046E-005
4.3787137E-001	3.0738281E+004	2.0407980E+005	2.0638170E+005	-8.1434555E+001	1.065078148627526E+004	-4.0589634E-002	2.0033691E-005
3.2773316E-001	4.5855754E+004	2.6687266E+005	2.7078363E+005	-8.0250282E+001	1.065998510196566E+004	-4.0598374E-002	2.0084613E-005
2.4519041E-001	6.9076125E+004	3.4753972E+005	3.5433794E+005	-7.8758537E+001	1.067227384862938E+004	-4.0597517E-002	2.0063970E-005
1.8356889E-001	1.0469199E+005	4.4939025E+005	4.6142391E+005	-7.6886017E+001	1.068867494503508E+004	-4.0595997E-002	2.0051477E-005
1.3737231E-001	1.5923222E+005	5.7648756E+005	5.9807425E+005	-7.4559258E+001	1.071057860860878E+004	-4.0595096E-002	2.0007825E-005
1.0286123E-001	2.4125455E+005	7.3039863E+005	7.6921125E+005	-7.1721336E+001	1.073981817005092E+004	-4.0587906E-002	1.9945475E-005
7.7023357E-002	3.6295791E+005	9.1117075E+005	9.8080100E+005	-6.8280510E+001	1.077885330233169E+004	-4.0593203E-002	1.9853838E-005
5.7640672E-002	5.3802813E+005	1.1125024E+006	1.2357734E+006	-6.4190674E+001	1.083100201414188E+004	-4.0597111E-002	1.9719819E-005
4.3156743E-002	7.7712050E+005	1.3177415E+006	1.5298231E+006	-5.9470589E+001	1.090063974414286E+004	-4.0596895E-002	1.9543148E-005
3.2296106E-002	1.0864059E+006	1.5066908E+006	1.8575238E+006	-5.4206348E+001	1.099368277797551E+004	-4.0601477E-002	1.9312400E-005
2.4171919E-002	1.4464823E+006	1.6560205E+006	2.1987985E+006	-4.8863800E+001	1.111798482526618E+004	-4.0594768E-002	1.9025645E-005
1.8095449E-002	1.8417479E+006	1.7455986E+006	2.5375480E+006	-4.3464706E+001	1.128401506408554E+004	-4.0576864E-002	1.8644510E-005
1.3546422E-002	2.2373933E+006	1.7838929E+006	2.8615035E+006	-3.8565655E+001	1.150578577837913E+004	-4.0591758E-002	1.8159395E-005
1.0138676E-002	2.6157598E+006	1.7742379E+006	3.1607150E+006	-3.4148567E+001	1.180208381933247E+004	-4.0594667E-002	1.7505585E-005
7.5937808E-003	2.9585928E+006	1.7555944E+006	3.4402590E+006	-3.0684399E+001	1.219766871406842E+004	-4.0597528E-002	1.6762518E-005
5.6843013E-003	3.2879413E+006	1.7526183E+006	3.7258863E+006	-2.8059591E+001	1.272612766799558E+004	-4.0597420E-002	1.5911364E-005
4.2551756E-003	3.5772373E+006	1.7778500E+006	3.9946685E+006	-2.6426903E+001	1.343206003496551E+004	-4.0598158E-002	1.4855485E-005
3.1851381E-003	3.8912310E+006	1.8128473E+006	4.2927955E+006	-2.4979877E+001	1.437513482034585E+004	-4.0596075E-002	1.3775185E-005
2.3847669E-003	4.1240078E+006	1.9078368E+006	4.5439280E+006	-2.4826071E+001	1.563470947531908E+004	-4.0595856E-002	1.2261165E-005
1.7846748E-003	4.4432370E+006	2.0005125E+006	4.8728230E+006	-2.4239067E+001	1.731780379976856E+004	-4.0598430E-002	1.0719642E-005
1.3360009E-003	4.7796325E+006	2.1489195E+006	5.2404905E+006	-2.4208651E+001	1.956611522341089E+004	-4.0601213E-002	9.2869222E-006
9.9990517E-004	5.1702405E+006	2.3457755E+006	5.6775040E+006	-2.4404139E+001	2.257014876454812E+004	-4.0601943E-002	8.0679802E-006
