freq/Hz,Re(Z)/Ohm,-Im(Z)/Ohm,|Z|/Ohm,Phase(Z)/deg,time/s,<Ewe>/V,<I>/mA
200019.48,130.4171,34.680012,134.94934,-14.891262,10602.35877037526,-0.040435545,-0.00099461863
149716.77,134.15704,27.274202,136.9014,-11.491652,10602.73376095307,-0.04046046,-0.00074689457
112070.29,136.40355,21.577759,138.0997,-8.9891653,10603.23275020346,-0.040456451,-0.00072788144
83886.695,137.78223,17.275707,138.86105,-7.1466866,10603.60777374124,-0.040450379,-0.00078529207
62792.953,138.55463,14.341043,139.29483,-5.9093351,10603.98176706571,-0.040451832,-0.00081735285
47011.707,139.11638,12.488245,139.67578,-5.1295972,10604.35675903014,-0.040456861,-0.00080188201
35185.535,139.57651,11.539886,140.05273,-4.7263427,10604.73176272796,-0.040454011,-0.00079927233
26337.883,139.9438,11.390005,140.40656,-4.6530385,10605.10676431912,-0.040449407,-0.00081884407
19716.791,140.40123,12.181064,140.92865,-4.9585056,10605.48177159025,-0.04045105,-0.00081828487
14755.859,140.87042,13.87962,141.55254,-5.6270518,10605.85676907474,-0.040452633,-0.00082536775
11044.919,141.45625,16.460274,142.41072,-6.637259,10606.35576128511,-0.040457122,-0.00084754941
8412.8223,142.14565,19.882139,143.52939,-7.9623947,10606.78597871889,-0.04059194,-0.00082648644
6299.2124,142.97421,24.846706,145.11714,-9.8586588,10607.3309341314,-0.040589053,-0.00080467958
4633.5156,143.9037,31.965317,147.41118,-12.523768,10608.20247777287,-0.040590171,-0.00085575104
3468.886,144.97437,40.939404,150.64395,-15.769184,10608.85548737721,-0.040599115,-0.00086656213
2597.4958,146.033,53.045052,155.36865,-19.963053,10609.50521255471,-0.040591531,-0.00091502559
1944.3779,147.32561,69.020302,162.69185,-25.102533,10610.15847202577,-0.040590692,-0.00088221929
1455.4634,148.9675,90.31414,174.20665,-31.227068,10611.02733404037,-0.040597569,-0.000888184
1088.9545,150.868,118.55865,191.87836,-38.161808,10611.6806124447,-0.040591978,-0.000867308
815.25739,153.38699,156.07516,218.83104,-45.497692,10612.33235639569,-0.040591065,-0.00084885472
610.19507,156.75284,205.60303,258.54218,-52.67791,10612.98435479999,-0.040588327,-0.00090421538
456.90088,160.92087,271.35919,315.48587,-59.331299,10614.09658026614,-0.040594678,-7.3313553e-05
342.07999,166.47746,357.70621,394.54843,-65.042603,10614.74419693684,-0.040597253,-7.1317132e-05
256.06528,173.77625,471.94934,502.92581,-69.785812,10615.39457998113,-0.040596843,-7.5683842e-05
191.65575,183.60539,622.90924,649.40503,-73.576874,10616.04270089191,-0.040599115,-7.4825941e-05
143.48476,196.32477,822.00745,845.12701,-76.56736,10616.70253430991,-0.040590581,-7.4882046e-05
107.37106,213.2697,1085.1769,1105.9353,-78.881371,10617.3410159669,-0.040605396,-7.4415708e-05
80.385803,236.03098,1433.6805,1452.9799,-80.651093,10617.99143573114,-0.040612921,-7.6505785e-05
60.173271,265.3732,1892.153,1910.6715,-82.01638,10618.641833762,-0.040605005,-7.9360791e-05
45.043228,305.79886,2499.6538,2518.2896,-83.025291,10619.54023572465,-0.040599562,1.6005855e-05
33.71611,360.31354,3301.0442,3320.6504,-83.770744,10620.21501359669,-0.040602617,1.2039787e-05
25.234146,432.33145,4354.8379,4376.2456,-84.330475,10620.8625540275,-0.04060493,1.0398163e-05
18.893555,532.7395,5755.6865,5780.2886,-84.711838,10621.55015331344,-0.040607322,1.1430669e-05
14.135986,669.84698,7596.9028,7626.377,-84.961052,10622.23865001285,-0.040596414,1.2125528e-05
10.586008,849.92682,10017.949,10053.938,-85.15062,10622.85835401565,-0.040598333,1.2588146e-05
7.9233942,1103.5782,13215.479,13261.478,-85.226509,10623.96486513485,-0.040596135,1.9567002e-05
5.9320397,1464.2717,17422.945,17484.367,-85.195999,10624.52397185471,-0.040600419,1.8486064e-05
4.4389215,1954.4601,22996.092,23078.998,-85.142052,10625.25171506265,-0.040596377,1.9493671e-05
3.324471,2610.5586,30248.844,30361.283,-85.067436,10626.20330732119,-0.040591262,1.9928868e-05
2.4872644,3620.1074,39883.594,40047.551,-84.813652,10627.45759652741,-0.040592488,1.9572613e-05
1.8623395,4931.8779,52506.844,52737.957,-84.634048,10629.69853210053,-0.040601045,1.9966785e-05
1.3933479,6875.2324,69083.32,69424.594,-84.316589,10631.89746095164,-0.040614765,2.0064368e-05
1.0433345,9789.4717,90776.766,91303.094,-83.84494,10634.81936210376,-0.040598035,2.0129652e-05
0.78156585,14103.699,119175.55,120007.19,-83.250786,10638.70443962162,-0.040596291,2.015875e-05
0.58476776,20709.209,156059.33,157427.39,-82.440964,10643.88251285424,-0.040591829,1.9872046e-05
0.43787137,30738.281,204079.8,206381.7,-81.434555,10650.78148627526,-0.040589634,2.0033691e-05
0.32773316,45855.754,266872.66,270783.63,-80.250282,10659.98510196566,-0.040598374,2.0084613e-05
0.24519041,69076.125,347539.72,354337.94,-78.758537,10672.27384862938,-0.040597517,2.006397e-05
0.18356889,104691.99,449390.25,461423.91,-76.886017,10688.67494503508,-0.040595997,2.0051477e-05
0.13737231,159232.22,576487.56,598074.25,-74.559258,10710.57860860878,-0.040595096,2.0007825e-05
0.10286123,241254.55,730398.63,769211.25,-71.721336,10739.81817005092,-0.040587906,1.9945475e-05
0.077023357,362957.91,911170.75,980801.0,-68.28051,10778.85330233169,-0.040593203,1.9853838e-05
0.057640672,538028.13,1112502.4,1235773.4,-64.190674,10831.00201414188,-0.040597111,1.9719819e-05
0.043156743,777120.5,1317741.5,1529823.1,-59.470589,10900.63974414286,-0.040596895,1.9543148e-05
0.032296106,1086405.9,1506690.8,1857523.8,-54.206348,10993.68277797551,-0.040601477,1.93124e-05
0.024171919,1446482.3,1656020.5,2198798.5,-48.8638,11117.98482526618,-0.040594768,1.9025645e-05
0.018095449,1841747.9,1745598.6,2537548.0,-43.464706,11284.01506408554,-0.040576864,1.864451e-05
0.013546422,2237393.3,1783892.9,2861503.5,-38.565655,11505.78577837913,-0.040591758,1.8159395e-05
0.010138676,2615759.8,1774237.9,3160715.0,-34.148567,11802.08381933247,-0.040594667,1.7505585e-05
0.0075937808,2958592.8,1755594.4,3440259.0,-30.684399,12197.66871406842,-0.040597528,1.6762518e-05
0.0056843013,3287941.3,1752618.3,3725886.3,-28.059591,12726.12766799558,-0.04059742,1.5911364e-05
0.0042551756,3577237.3,1777850.0,3994668.5,-26.426903,13432.06003496551,-0.040598158,1.4855485e-05
0.0031851381,3891231.0,1812847.3,4292795.5,-24.979877,14375.13482034585,-0.040596075,1.3775185e-05
0.0023847669,4124007.8,1907836.8,4543928.0,-24.826071,15634.70947531908,-0.040595856,1.2261165e-05
0.0017846748,4443237.0,2000512.5,4872823.0,-24.239067,17317.80379976856,-0.04059843,1.0719642e-05
0.0013360009,4779632.5,2148919.5,5240490.5,-24.208651,19566.11522341089,-0.040601213,9.2869222e-06
0.00099990517,5170240.5,2345775.5,5677504.0,-24.404139,22570.14876454812,-0.040601943,8.0679802e-06
